# HZ S RI R 50
500000 -0.9996151712038 -0.000437435493673974 1.0024829999776799 -0.05055583936621205 0 0 0 0
1195000 -0.9999141747769237 0.002844279729748286 0.9984841670862367 -0.1149636134495205 0 0 0 0
1890000 -1.002177256350342 0.0023636532738298137 1.001362363330109 -0.1789526042084696 0 0 0 0
2585000 -1.0032897670536223 0.00440879839099853 1.006453363519472 -0.24141265765177045 0 0 0 0
3280000 -1.0044139878587317 0.00707981390422198 1.0153050334017928 -0.31346059521784914 0 0 0 0
3975000 -1.0062983145207225 0.010143618377344598 1.0293418595902095 -0.3971671088744362 0 0 0 0
4670000 -1.010427014799827 0.011265185077463317 1.0529758807895502 -0.48749121790080746 0 0 0 0
5365000 -1.0152184350977453 0.01732424028724674 1.080499154819769 -0.6073322247749792 0 0 0 0
6060000 -1.0195138087709952 0.02166493696089248 1.1068371826230192 -0.7548775477142156 0 0 0 0
6755000 -1.024217037793188 0.03216530535435744 1.118996143436767 -0.9511489728513219 0 0 0 0
7450000 -1.0286904664937897 0.04239122137047226 1.1122445600558775 -1.217618597362764 0 0 0 0
8145000 -1.0307031907922106 0.06009867900521383 1.0052372043709135 -1.5818772444683806 0 0 0 0
8840000 -1.02504825868209 0.08742127118926284 0.6962790591515247 -2.0099886761437142 0 0 0 0
9535000 -0.9996060838356002 0.11368036184466468 0.05948139270288419 -2.330998285283809 0 0 0 0
10230000 -0.9613151579860374 0.1230023787174553 -0.7665418525296852 -2.201589894723606 0 0 0 0
10925000 -0.9202436500826701 0.10685263244863659 -1.3118703031887067 -1.60859252948383 0 0 0 0
11620000 -0.9087132730802449 0.0788249875758919 -1.4068644308623726 -0.9889895588251947 0 0 0 0
12315000 -0.9085348502528726 0.0593687257995111 -1.2747237622425391 -0.5837358196691538 0 0 0 0
13010000 -0.909126779266894 0.04618078254699771 -1.148067966457685 -0.3420688950886821 0 0 0 0
13705000 -0.9079146083500645 0.033886127953253756 -1.0071294518786227 -0.1500500377248944 0 0 0 0
14400000 -0.9139118714481904 0.022930510628401905 -0.8599880012408158 -0.02894740279267094 0 0 0 0
15095000 -0.9178702813930059 0.01784241179987758 -0.7331101600910206 0.03750631493245282 0 0 0 0
15790000 -0.9239658545939431 0.013316808448052633 -0.6334241225722472 0.07586988165727687 0 0 0 0
16485000 -0.9276320298767914 0.009802567466288364 -0.5517169344345697 0.0999786471413096 0 0 0 0
17180000 -0.9312823607218191 0.009138138406621251 -0.48476473949245014 0.11592524636728857 0 0 0 0
17875000 -0.9338569739158926 0.0072141731673410195 -0.4293241383791335 0.12506339539041028 0 0 0 0
18570000 -0.9366318308852689 0.005472777488482199 -0.38242139566986366 0.13039701309050067 0 0 0 0
19265000 -0.9388493286517864 0.003713325045081447 -0.34253874280650554 0.1337413994413417 0 0 0 0
19960000 -0.9413829030986325 0.0041779396323447 -0.30751771872222483 0.13565739569203714 0 0 0 0
20655000 -0.9438344468358574 0.0029693496547413736 -0.27748164814050513 0.13626134475670998 0 0 0 0
21350000 -0.9448952075789706 0.0026068710018267347 -0.25069091068329696 0.1361590441867722 0 0 0 0
22045000 -0.9466737418052753 0.0023929136107833844 -0.2270513079467185 0.13506460147566368 0 0 0 0
22740000 -0.9484167014859094 0.0015189093859824488 -0.20611601979425237 0.13391660460726065 0 0 0 0
23435000 -0.9499771801066955 0.0011276631415868025 -0.18726266068449238 0.1321886505987468 0 0 0 0
24130000 -0.9514699769284267 0.0009540680739001749 -0.16989327725643932 0.1305002333925229 0 0 0 0
24825000 -0.9528371058716018 0.0008713391081615267 -0.15412214424174542 0.1283428286505094 0 0 0 0
25520000 -0.954373246918624 0.0009637172759189044 -0.13977035053579706 0.12594079589132612 0 0 0 0
26215000 -0.9555341968917154 0.0006363915585728725 -0.12654267718742968 0.12365031334673157 0 0 0 0
26910000 -0.9564923342702045 0.0005390733911262273 -0.11424668052163649 0.12126459518249794 0 0 0 0
27605000 -0.9581994371118644 5.157687301789043e-05 -0.10250022832562888 0.11831747089491772 0 0 0 0
28300000 -0.9594935599119483 0.0002857294133647851 -0.0918641647277261 0.1150753334364038 0 0 0 0
28995000 -0.9607270006540322 -3.434831105985575e-05 -0.08207832741463747 0.11206418389090204 0 0 0 0
29690000 -0.961917714608664 4.921111083985076e-05 -0.07285078477307588 0.1087419067488934 0 0 0 0
30385000 -0.9630400988406024 0.00016874540859324497 -0.06404287180328269 0.10521368637026186 0 0 0 0
31080000 -0.9641127162549125 3.824702876666839e-05 -0.05628420684875368 0.1015306208588583 0 0 0 0
31775000 -0.9655365445600768 -0.00012612244201796604 -0.04888042813860005 0.0977796695842878 0 0 0 0
32470000 -0.9671058167643807 6.436749033627236e-05 -0.04187876527805711 0.09408225825470098 0 0 0 0
33165000 -0.9681412788855243 -0.0001544375271824885 -0.03535486825281578 0.08975700985974794 0 0 0 0
33860000 -0.9697124998068307 -0.0001275141033914133 -0.029192878493263952 0.08564224952461402 0 0 0 0
34555000 -0.970929721404018 -8.62261089278338e-05 -0.023678344572530846 0.08086741439412093 0 0 0 0
35250000 -0.9724094705899003 -9.063643710118931e-05 -0.018707822323646674 0.0765820136683386 0 0 0 0
35945000 -0.97357023986168 -4.719682654433181e-05 -0.014170014101391688 0.07200731670791966 0 0 0 0
36640000 -0.9750534488424014 -0.00011782415229931896 -0.009985378728133286 0.06745347803435806 0 0 0 0
37335000 -0.9764677343820607 -0.00011937047259374309 -0.006299586750393681 0.06274118545862713 0 0 0 0
38030000 -0.9780159496944612 6.396470372075703e-06 -0.0031493952015613537 0.05778940613517593 0 0 0 0
38725000 -0.9795319592886899 -1.238676900057733e-05 -0.00028139059844804054 0.05319681042236642 0 0 0 0
39420000 -0.9809363633196984 1.0193148541531762e-05 0.002441340814524042 0.04800984790318776 0 0 0 0
40115000 -0.982612875422175 0.00017182960602147982 0.004176191755332322 0.043117096905976274 0 0 0 0
40810000 -0.9842229916031507 0.00016368929456796793 0.005643524990471224 0.038121746942497946 0 0 0 0
41505000 -0.9859208428984971 0.0002042916449794847 0.006520006670294469 0.033407091889152786 0 0 0 0
42200000 -0.9876795431800298 0.00020892695065718403 0.007170780004747517 0.029123632266069836 0 0 0 0
42895000 -0.9894889010475312 0.0003302462557334699 0.00762775576494421 0.02479720842450548 0 0 0 0
43590000 -0.9913855012628378 0.0004512678572135377 0.008098327109205671 0.020590726183000868 0 0 0 0
44285000 -0.9933226937991514 0.0005899861425319006 0.007976659660083613 0.016362429706544182 0 0 0 0
44980000 -0.9953764253344028 0.0008034412310287419 0.008075429604971433 0.01291416561556423 0 0 0 0
45675000 -0.9975496755807732 0.0011388750125238102 0.009596947444761018 0.00879539038632585 0 0 0 0
46370000 -0.999619651547258 0.001659498695287568 0.010124291023038008 0.0017627683976436496 0 0 0 0
47065000 -1.0015177625460348 0.0021522878021739446 0.007671768092762873 -0.004885397678077893 0 0 0 0
47760000 -1.0032984048270406 0.0025126616498982943 0.0035185280706765895 -0.011454788993757466 0 0 0 0
48455000 -1.005391314917447 0.0024921237299008535 -0.001780000369659404 -0.01433417957044968 0 0 0 0
49150000 -1.0077165292583286 0.0026631426393827935 -0.0054435461601069594 -0.016404949562395802 0 0 0 0
49845000 -1.0101845561163516 0.002926661017036965 -0.008267049449611092 -0.018505591914908224 0 0 0 0
50540000 -1.0127116003479841 0.00325158801700894 -0.011443603284045836 -0.020977392965901256 0 0 0 0
51235000 -1.0155624793687241 0.0038202265642860865 -0.013433679043462474 -0.023057886551773807 0 0 0 0
51930000 -1.0182290894963688 0.004589553947038439 -0.015482308411680926 -0.026562976195946858 0 0 0 0
52625000 -1.0209230595038064 0.0057244710513943454 -0.01738779405375345 -0.03148795331553648 0 0 0 0
53320000 -1.0230933139163074 0.006657298771473374 -0.022908135967850934 -0.038435828472996356 0 0 0 0
54015000 -1.0253552459037545 0.00701759817411711 -0.031715578821221925 -0.04138407884448521 0 0 0 0
54710000 -1.0284696910444502 0.007669541536027437 -0.037302268073135546 -0.04282694419142395 0 0 0 0
55405000 -1.0309854027262797 0.008984982953617868 -0.04365974428536797 -0.04760881960763444 0 0 0 0
56100000 -1.0325081466323558 0.009281047271261661 -0.0553962399305164 -0.05022027940774579 0 0 0 0
56795000 -1.035226067031521 0.008850039201416787 -0.06630109734322243 -0.04792558134781287 0 0 0 0
57490000 -1.0387878125022485 0.008595410183769844 -0.0741420242682693 -0.044303946878888015 0 0 0 0
58185000 -1.0427333799715497 0.00844938221627029 -0.08043840335626914 -0.04174023938711342 0 0 0 0
58880000 -1.0467632023579634 0.009230487805787651 -0.08690482336379286 -0.040069123807588855 0 0 0 0
59575000 -1.0511904478579128 0.009927687716273961 -0.09369944824948857 -0.039020362284307164 0 0 0 0
60270000 -1.055498578782573 0.010854929433646583 -0.10213880836096975 -0.03809761240269883 0 0 0 0
60965000 -1.0598196741730725 0.011623036939962144 -0.11089940254533773 -0.03529380052464802 0 0 0 0
61660000 -1.0646610676607386 0.012835412671188496 -0.11960729681461871 -0.033812951666532184 0 0 0 0
62355000 -1.06904949613256 0.014040305189841737 -0.13156419339996578 -0.031475352367140316 0 0 0 0
63050000 -1.0743196567510689 0.01566641959227824 -0.14393716608773383 -0.0257706813944468 0 0 0 0
63745000 -1.0795146208648487 0.015979722266350384 -0.15485336168123864 -0.019107543098690456 0 0 0 0
64440000 -1.085750976580417 0.01752059514572724 -0.16642298098173625 -0.01251868533117241 0 0 0 0
65135000 -1.092114935058457 0.01932430198584735 -0.17888949024541417 -0.004428193649458512 0 0 0 0
65830000 -1.0992649032362614 0.021903032067053532 -0.19168247179683284 0.004755983878298703 0 0 0 0
66525000 -1.1057596587506633 0.02465302650323693 -0.20509352785668444 0.015415590534214721 0 0 0 0
67220000 -1.1131214566052954 0.027554346856522537 -0.2192488847347341 0.02737766819655342 0 0 0 0
67915000 -1.1225262911722942 0.030770918449626452 -0.23465682854502856 0.04100326167593457 0 0 0 0
68610000 -1.1302814857840455 0.03499402476761688 -0.25120012441135164 0.05801014127906841 0 0 0 0
69305000 -1.139925276159883 0.039659840153240096 -0.2691729139299147 0.07861636012688651 0 0 0 0
70000000 -1.1494959542401817 0.045704822707863024 -0.2865484557229159 0.10356111494868137 0 0 0 0
